T3554 306:869 SEGGER J-Link V6.10 Log File (0001ms, 2690ms total)
T3554 306:869 DLL Compiled: Sep 14 2016 16:45:07 (0001ms, 2690ms total)
T3554 306:869 Logging started @ 2018-08-25 20:23 (0001ms, 2690ms total)
T3554 306:955 JLINK_ExecCommand("Device = ATSAMD21G18A", ...). Device "ATSAMD21G18" selected.  returns 0x00 (0000ms, 2690ms total)
T3554 307:033 JLINK_ExecCommand("device = ATSAMD21G18A", ...). Device "ATSAMD21G18" selected.  returns 0x00 (0000ms, 2690ms total)
T3554 307:033 JLINK_GetHWStatus(...)  returns 0x00 (0000ms, 2690ms total)
T3554 307:033 JLINK_ClrRESET() (0001ms, 2691ms total)
T3554 307:034 JLINK_SetRESET() (0000ms, 2691ms total)
T3554 307:034 JLINK_ClrRESET() (0000ms, 2691ms total)
T3554 307:034 JLINK_ClrTCK()  returns 0x00 (0000ms, 2691ms total)
T3554 307:034 JLINK_SetRESET() (0000ms, 2691ms total)
T3554 307:034 JLINK_Clock()  returns 0x00 (0000ms, 2691ms total)
T3554 307:034 JLINK_TIF_Select(JLINKARM_TIF_SWD)  returns 0x00 (0001ms, 2692ms total)
T3554 307:035 JLINK_SetSpeed(50) (0000ms, 2692ms total)
T3554 307:035 JLINK_JTAG_StoreRaw(..., 0x108 Bits)  returns 0x00 (0000ms, 2692ms total)
T3554 307:035 JLINK_JTAG_GetU32(BitPos = 227) >0x108 TIF>  returns 0x0BC11477 (0005ms, 2697ms total)
T3554 307:040 JLINK_JTAG_StoreRaw(..., 0x08 Bits)  returns 0x00 (0000ms, 2697ms total)
T3554 307:040 JLINK_JTAG_StoreRaw(..., 0x03 Bits)  returns 0x08 (0000ms, 2697ms total)
T3554 307:040 JLINK_JTAG_StoreRaw(..., 0x28 Bits)  returns 0x0B (0000ms, 2697ms total)
T3554 307:040 JLINK_JTAG_GetU8(BitPos = 8) >0x33 TIF>  returns 0xB9 (0002ms, 2699ms total)
T3554 307:042 JLINK_JTAG_GetU32(BitPos = 11)  returns 0x0BC11477 (0000ms, 2699ms total)
T3554 307:042 JLINK_JTAG_GetU8(BitPos = 43)  returns 0x02 (0000ms, 2699ms total)
T3554 307:042 JLINK_JTAG_StoreRaw(..., 0x08 Bits)  returns 0x00 (0000ms, 2699ms total)
T3554 307:042 JLINK_JTAG_StoreRaw(..., 0x03 Bits)  returns 0x08 (0000ms, 2699ms total)
T3554 307:042 JLINK_JTAG_StoreRaw(..., 0x28 Bits)  returns 0x0B (0000ms, 2699ms total)
T3554 307:042 JLINK_JTAG_GetU8(BitPos = 8) >0x33 TIF>  returns 0x01 (0001ms, 2700ms total)
T3554 307:043 JLINK_JTAG_GetU32(BitPos = 11)  returns 0x00000000 (0000ms, 2700ms total)
T3554 307:043 JLINK_JTAG_GetU8(BitPos = 43)  returns 0x02 (0000ms, 2700ms total)
T3554 307:043 JLINK_JTAG_StoreRaw(..., 0x08 Bits)  returns 0x00 (0000ms, 2700ms total)
T3554 307:043 JLINK_JTAG_StoreRaw(..., 0x03 Bits)  returns 0x08 (0000ms, 2700ms total)
T3554 307:043 JLINK_JTAG_StoreRaw(..., 0x02 Bits)  returns 0x0B (0000ms, 2700ms total)
T3554 307:043 JLINK_JTAG_StoreRaw(..., 0x28 Bits)  returns 0x0D (0000ms, 2700ms total)
T3554 307:043 JLINK_JTAG_GetU8(BitPos = 8) >0x35 TIF>  returns 0x39 (0001ms, 2701ms total)
T3554 307:044 JLINK_JTAG_StoreRaw(..., 0x08 Bits)  returns 0x00 (0000ms, 2701ms total)
T3554 307:044 JLINK_JTAG_StoreRaw(..., 0x03 Bits)  returns 0x08 (0000ms, 2701ms total)
T3554 307:044 JLINK_JTAG_StoreRaw(..., 0x28 Bits)  returns 0x0B (0000ms, 2701ms total)
T3554 307:044 JLINK_JTAG_GetU8(BitPos = 8) >0x33 TIF>  returns 0x09 (0002ms, 2703ms total)
T3554 307:046 JLINK_JTAG_GetU32(BitPos = 11)  returns 0xF0000001 (0000ms, 2703ms total)
T3554 307:046 JLINK_JTAG_GetU8(BitPos = 43)  returns 0x03 (0000ms, 2703ms total)
T3554 307:046 JLINK_WriteU32(0x41002100, 0x00000010) >0x108 TIF>Found SWD-DP with ID 0x0BC11477 >0x0D TIF> >0x28 TIF> >0x0D TIF> >0x28 TIF> >0x0D TIF> >0x28 TIF> >0x0D TIF> >0x28 TIF> >0x0D TIF> >0x21 TIF> >0x0D TIF> >0x28 TIF> >0x0D TIF> >0x28 TIF> >0x0D TIF> >0x28 TIF> >0x0D TIF> >0x21 TIF> >0x0D TIF> >0x21 TIF> >0x108 TIF>Found SWD-DP with ID 0x0BC11477 >0x0D TIF> >0x28 TIF> >0x0D TIF> >0x28 TIF> >0x0D TIF> >0x28 TIF> >0x0D TIF> >0x28 TIF> >0x0D TIF> >0x21 TIF> >0x0D TIF> >0x28 TIF> >0x0D TIF>
 >0x28 TIF> >0x0D TIF> >0x21 TIF> >0x0D TIF> >0x21 TIF> >0x0D TIF> >0x21 TIF>AP-IDR: 0x04770031, Type: AHB-AP >0x0D TIF> >0x28 TIF> >0x0D TIF> >0x28 TIF> >0x0D TIF> >0x28 TIF> >0x0D TIF> >0x21 TIF> >0x0D TIF> >0x21 TIF> >0x0D TIF> >0x28 TIF> >0x0D TIF> >0x21 TIF> >0x0D TIF> >0x21 TIF>Found Cortex-M0 r0p1, Little endian. -- CPU_ReadMem(4 bytes @ 0xE000EDF0) -- CPU_WriteMem(4 bytes @ 0xE000EDF0) -- CPU_ReadMem(4 bytes @ 0xE0002000)FPUnit: 4 code (BP) slots and 0 literal slots
 -- CPU_ReadMem(4 bytes @ 0xE000EDFC) -- CPU_WriteMem(4 bytes @ 0xE000EDFC) -- CPU_ReadMem(4 bytes @ 0xE0001000) -- CPU_WriteMem(4 bytes @ 0xE0001000)CoreSight components:ROMTbl 0 @ 41003000 -- CPU_ReadMem(16 bytes @ 0x41003000) -- CPU_ReadMem(16 bytes @ 0xE00FFFF0) -- CPU_ReadMem(16 bytes @ 0xE00FFFE0)ROMTbl 0 [0]: 9F0FC000, CID: B105100D, PID: 000BB4C0 ROM TableROMTbl 1 @ E00FF000 -- CPU_ReadMem(16 bytes @ 0xE00FF000) -- CPU_ReadMem(16 bytes @ 0xE000EFF0) -- CPU_ReadMem(16 bytes @ 0xE000EFE0)
ROMTbl 1 [0]: FFF0F000, CID: B105E00D, PID: 000BB008 SCS -- CPU_ReadMem(16 bytes @ 0xE0001FF0) -- CPU_ReadMem(16 bytes @ 0xE0001FE0)ROMTbl 1 [1]: FFF02000, CID: B105E00D, PID: 000BB00A DWT -- CPU_ReadMem(16 bytes @ 0xE0002FF0) -- CPU_ReadMem(16 bytes @ 0xE0002FE0)ROMTbl 1 [2]: FFF03000, CID: B105E00D, PID: 000BB00B FPB -- CPU_ReadMem(16 bytes @ 0x41006FF0) -- CPU_ReadMem(16 bytes @ 0x41006FE0)ROMTbl 0 [1]: 00003000, CID: B105900D, PID: 001BB932 MTB-M0+ -- CPU is running
 -- CPU_WriteMem(4 bytes @ 0x41002100)  returns 0x00 (0207ms, 2910ms total)
T3554 307:253 JLINK_ReadMem (0x41002101, 0x0001 Bytes, ...) -- CPU is running -- CPU_ReadMem(1 bytes @ 0x41002101) - Data: 01  returns 0x00 (0033ms, 2943ms total)
T1C20 307:286 JLINK_EMU_GetList(InterfaceMask = 0x00000001, MaxInfos = 0x00000032) [0]: USB, S/N: 28007034  returns 0x01 (0000ms, 2943ms total)
T3554 307:286 JLINK_ExecCommand("ProjectFile = A:\Dropbox\Projects\Carbage Run 2018\ElectrifyEverything\ElectrifyEverything\jlink.config", ...).   returns 0x00 (0000ms, 2943ms total)
T3554 307:354 JLINK_ExecCommand("Device = ATSAMD21G18A", ...). Device "ATSAMD21G18" selected.  returns 0x00 (0000ms, 2943ms total)
T3554 307:354 JLINK_TIF_Select(JLINKARM_TIF_SWD)  returns 0x00 (0000ms, 2943ms total)
T3554 307:354 JLINK_SetSpeed(4000) (0000ms, 2943ms total)
T3554 307:354 JLINK_ResetPullsRESET(OFF) (0000ms, 2943ms total)
T3554 307:354 JLINK_Connect() >0x108 TIF>Found SWD-DP with ID 0x0BC11477 >0x0D TIF> >0x28 TIF> >0x0D TIF> >0x28 TIF> >0x0D TIF> >0x28 TIF> >0x0D TIF> >0x28 TIF> >0x0D TIF> >0x21 TIF> >0x0D TIF> >0x28 TIF> >0x0D TIF> >0x28 TIF> >0x0D TIF> >0x28 TIF> >0x0D TIF> >0x21 TIF> >0x0D TIF> >0x21 TIF> >0x108 TIF>Found SWD-DP with ID 0x0BC11477 >0x0D TIF> >0x28 TIF> >0x0D TIF> >0x28 TIF> >0x0D TIF> >0x28 TIF> >0x0D TIF> >0x28 TIF> >0x0D TIF> >0x21 TIF> >0x0D TIF> >0x28 TIF> >0x0D TIF> >0x28 TIF> >0x0D TIF>
 >0x21 TIF> >0x0D TIF> >0x21 TIF> >0x0D TIF> >0x21 TIF>AP-IDR: 0x04770031, Type: AHB-AP >0x0D TIF> >0x28 TIF> >0x0D TIF> >0x28 TIF> >0x0D TIF> >0x28 TIF> >0x0D TIF> >0x21 TIF> >0x0D TIF> >0x21 TIF> >0x0D TIF> >0x28 TIF> >0x0D TIF> >0x21 TIF> >0x0D TIF> >0x21 TIF>Found Cortex-M0 r0p1, Little endian. -- CPU_ReadMem(4 bytes @ 0xE000EDF0) -- CPU_ReadMem(4 bytes @ 0xE0002000)FPUnit: 4 code (BP) slots and 0 literal slots -- CPU_ReadMem(4 bytes @ 0xE000EDFC) -- CPU_ReadMem(4 bytes @ 0xE0001000)
 -- CPU_WriteMem(4 bytes @ 0xE0001000)CoreSight components:ROMTbl 0 @ 41003000 -- CPU_ReadMem(16 bytes @ 0x41003000) -- CPU_ReadMem(16 bytes @ 0xE00FFFF0) -- CPU_ReadMem(16 bytes @ 0xE00FFFE0)ROMTbl 0 [0]: 9F0FC000, CID: B105100D, PID: 000BB4C0 ROM TableROMTbl 1 @ E00FF000 -- CPU_ReadMem(16 bytes @ 0xE00FF000) -- CPU_ReadMem(16 bytes @ 0xE000EFF0) -- CPU_ReadMem(16 bytes @ 0xE000EFE0)ROMTbl 1 [0]: FFF0F000, CID: B105E00D, PID: 000BB008 SCS -- CPU_ReadMem(16 bytes @ 0xE0001FF0)
 -- CPU_ReadMem(16 bytes @ 0xE0001FE0)ROMTbl 1 [1]: FFF02000, CID: B105E00D, PID: 000BB00A DWT -- CPU_ReadMem(16 bytes @ 0xE0002FF0) -- CPU_ReadMem(16 bytes @ 0xE0002FE0)ROMTbl 1 [2]: FFF03000, CID: B105E00D, PID: 000BB00B FPB -- CPU_ReadMem(16 bytes @ 0x41006FF0) -- CPU_ReadMem(16 bytes @ 0x41006FE0)ROMTbl 0 [1]: 00003000, CID: B105900D, PID: 001BB932 MTB-M0+  returns 0x00 (0018ms, 2961ms total)
T3554 307:372 JLINK_Halt()  returns 0x00 (0002ms, 2963ms total)
T3554 307:376 JLINK_JTAG_GetDeviceID(DeviceIndex = 0)  returns 0x00 (0000ms, 2963ms total)
T3554 307:376 JLINK_ReadMemU32(0x41002018, 0x0001 Items, ...) -- CPU_ReadMem(4 bytes @ 0x41002018) - Data: 05 03 01 10  returns 0x01 (0001ms, 2964ms total)
T2FE8 307:387 JLINK_IsHalted()  returns TRUE (0000ms, 2964ms total)
T2FE8 307:387 JLINK_GetMOEs(...) -- CPU_ReadMem(4 bytes @ 0xE000ED30)  returns 0x01 (0000ms, 2964ms total)
T2FE8 307:387 JLINK_ReadReg(R15 (PC))  returns 0xFFFFFFFE (0000ms, 2964ms total)
T3554 307:396 JLINK_BeginDownload(Flags = 0x00) (0000ms, 2964ms total)
T3554 307:396 JLINK_WriteMem(0x00000000, 0x7028 Bytes, ...) - Data: E0 2F 00 20 35 4C 00 00 2D 4D 00 00 2D 4D 00 00 ...  returns 0x7028 (0000ms, 2964ms total)
T3554 307:396 JLINK_WriteMem(0x00007028, 0x0008 Bytes, ...) - Data: 1C E5 FF 7F 01 00 00 00  returns 0x08 (0000ms, 2964ms total)
T3554 307:397 JLINK_WriteMem(0x00007030, 0x01CC Bytes, ...) - Data: BF F3 5F 8F 01 38 00 28 FA D1 70 47 50 57 4D 00 ...  returns 0x1CC (0000ms, 2964ms total)
T3554 307:405 JLINK_EndDownload()Old firmware which does not support pausing periodic actions during flash download -- CPU_ReadMem(4 bytes @ 0x41006004) -- -------------------------------------- -- Start of determining dirty areas in flash cache -- End of determining dirty areas -- Start of preparing flash programming -- Calculating RAM usage -- RAM usage = 3916 Bytes -- Preserving CPU registers -- Preparing memory -- Determining CPU clock frequency -- Preparing target -- Downloading RAMCode
 -- Checking target RAM -- Preparing RAMCode -- End of preparing flash programming -- CPU speed could not be measured. -- Start of comparing flash -- CRC check was estimated as fastest method -- Comparing range 0x0000 - 0x71FF (114 Sectors, 28 KB), using multi-block CRC calculation -- CRC does not match for sectors 0-113 -- End of comparing flash -- Start of erasing sectors -- End of erasing sectors -- Start of flash programming -- Programming range 0x00000000 - 0x000071FF (114 Sectors, 28 KB)
 -- End of flash programming -- 0x0000 - 0x71FF (114 Sectors, 28 KB) -- Start of verifying flash -- Checksum calculation was estimated as fastest method -- Checksum is not supported by this flash bank. Switched to CRC method. -- End of verifying flash -- Start of restoring -- Restoring RAMCode -- Restore target -- Restore memory -- Restoring CPU registers -- End of restoring -- Flash programming performed for 1 range (29184 bytes)
 -- Total time needed: 0.272s (Prepare: 0.028s, Compare: 0.020s, Erase: 0.000s, Program: 0.216s, Verify: 0.003s, Restore: 0.003s)  returns 0x7200 (0273ms, 3237ms total)
T2FE8 307:678 JLINK_IsHalted()  returns TRUE (0000ms, 3237ms total)
T3D98 307:779 JLINK_Halt()  returns 0x00 (0000ms, 3237ms total)
T3D98 307:779 JLINK_ReadReg(R15 (PC))  returns 0xFFFFFFFE (0000ms, 3237ms total)
T3D98 307:779 JLINK_ReadReg(R13 (SP))  returns 0x20002F18 (0000ms, 3237ms total)
T3D98 307:809 JLINK_ReadReg(R0)  returns 0xFFFFFFFF (0000ms, 3237ms total)
T3D98 307:809 JLINK_ReadReg(R1)  returns 0x00000000 (0000ms, 3237ms total)
T3D98 307:809 JLINK_ReadReg(R2)  returns 0x00000000 (0000ms, 3237ms total)
T3D98 307:809 JLINK_ReadReg(R3)  returns 0x00000000 (0000ms, 3237ms total)
T3D98 307:809 JLINK_ReadReg(R4)  returns 0x00000000 (0000ms, 3237ms total)
T3D98 307:809 JLINK_ReadReg(R5)  returns 0x00000000 (0000ms, 3237ms total)
T3D98 307:809 JLINK_ReadReg(R6)  returns 0x00000000 (0000ms, 3237ms total)
T3D98 307:809 JLINK_ReadReg(R7)  returns 0x00000000 (0000ms, 3237ms total)
T3D98 307:809 JLINK_ReadReg(R8)  returns 0xBFFDFFEB (0000ms, 3237ms total)
T3D98 307:809 JLINK_ReadReg(R9)  returns 0xF7DFFFD7 (0000ms, 3237ms total)
T3D98 307:809 JLINK_ReadReg(R10)  returns 0xC7BFFD7E (0000ms, 3237ms total)
T3D98 307:809 JLINK_ReadReg(R11)  returns 0x7FDFFFFB (0000ms, 3237ms total)
T3D98 307:809 JLINK_ReadReg(R12)  returns 0x00000000 (0000ms, 3237ms total)
T3D98 307:809 JLINK_ReadReg(R13 (SP))  returns 0x20002F18 (0000ms, 3237ms total)
T3D98 307:809 JLINK_ReadReg(R14)  returns 0xFFFFFFF1 (0000ms, 3237ms total)
T3D98 307:809 JLINK_ReadReg(R15 (PC))  returns 0xFFFFFFFE (0000ms, 3237ms total)
T3D98 307:809 JLINK_ReadReg(XPSR)  returns 0x81000003 (0000ms, 3237ms total)
T3D98 307:809 JLINK_ReadReg(MSP)  returns 0x20002F18 (0000ms, 3237ms total)
T3D98 307:809 JLINK_ReadReg(PSP)  returns 0xFFFFFFBC (0000ms, 3237ms total)
T3D98 307:809 JLINK_ReadReg(PRIMASK)  returns 0x00000000 (0000ms, 3237ms total)
T3D98 307:809 JLINK_ReadReg(BASEPRI)  returns 0x00000000 (0000ms, 3237ms total)
T3D98 307:809 JLINK_ReadReg(FAULTMASK)  returns 0x00000000 (0000ms, 3237ms total)
T3D98 307:809 JLINK_ReadReg(CONTROL)  returns 0x00000000 (0000ms, 3237ms total)
T3D98 307:820 JLINK_ReadMemHW(0x00004DC2, 0x0002 Bytes, ...) -- CPU_ReadMem(2 bytes @ 0x00004DC2) - Data: DD 4B  returns 0x00 (0000ms, 3237ms total)
T3D98 307:820 JLINK_ReadMemHW(0x00005138, 0x0004 Bytes, ...) -- CPU_ReadMem(4 bytes @ 0x00005138) - Data: 01 4C 00 00  returns 0x00 (0001ms, 3238ms total)
T3D98 307:821 JLINK_ReadMemHW(0x00004E76, 0x0002 Bytes, ...) -- CPU_ReadMem(2 bytes @ 0x00004E76) - Data: BF 49  returns 0x00 (0000ms, 3238ms total)
T3554 307:841 JLINK_GetNumBPUnits(Type = 0xFFFFFF02)  returns 0x04 (0000ms, 3238ms total)
T3554 307:841 JLINK_SetBPEx(Addr = 0x00004E76, Type = 0xFFFFFFF2)  returns 0x00000001 (0000ms, 3238ms total)
T3554 307:841 JLINK_GetBPInfo(BPHandle = 1)  returns 0x00 (0000ms, 3238ms total)
T3D98 307:852 JLINK_Reset() -- CPU_ReadMem(4 bytes @ 0x20000714) -- CPU_WriteMem(4 bytes @ 0x20000714) -- CPU_ReadMem(4 bytes @ 0xE000EDFC) -- CPU_WriteMem(4 bytes @ 0xE000EDFC) -- CPU_WriteMem(4 bytes @ 0xE000ED0C) -- CPU is running -- CPU_ReadMem(4 bytes @ 0xE000EDF0) -- CPU is running -- CPU_ReadMem(4 bytes @ 0x41002100) -- CPU is running -- CPU_WriteMem(4 bytes @ 0xE000EDFC) -- CPU_WriteMem(4 bytes @ 0xE0002000) -- CPU_ReadMem(4 bytes @ 0xE000EDFC) -- CPU_ReadMem(4 bytes @ 0xE0001000)
 -- CPU_WriteMem(4 bytes @ 0xE0001000) (0008ms, 3246ms total)
T2FE8 307:861 JLINK_IsHalted()  returns TRUE (0000ms, 3246ms total)
T2FE8 307:861 JLINK_GetMOEs(...) -- CPU_ReadMem(4 bytes @ 0xE000ED30)  returns 0x01 (0000ms, 3246ms total)
T2FE8 307:861 JLINK_ReadReg(R15 (PC))  returns 0x00004C34 (0000ms, 3246ms total)
T3D98 307:870 JLINK_ReadReg(R15 (PC))  returns 0x00004C34 (0000ms, 3246ms total)
T3D98 307:870 JLINK_ReadReg(R13 (SP))  returns 0x20002FE0 (0000ms, 3246ms total)
T3D98 307:880 JLINK_ReadMemHW(0x00004C34, 0x0004 Bytes, ...) -- CPU_ReadMem(4 bytes @ 0x00004C34) - Data: 80 B5 82 B0  returns 0x00 (0001ms, 3247ms total)
T3D98 307:922 JLINK_ReadMemHW(0x00004DBC, 0x0001 Bytes, ...) -- CPU_ReadMem(1 bytes @ 0x00004DBC) - Data: F0  returns 0x00 (0000ms, 3247ms total)
T3D98 307:963 JLINK_ReadReg(R15 (PC))  returns 0x00004C34 (0000ms, 3247ms total)
T3D98 307:963 JLINK_SetBPEx(Addr = 0x00004DBC, Type = 0xFFFFFFF2)  returns 0x00000002 (0000ms, 3247ms total)
T3D98 307:963 JLINK_GetBPInfo(BPHandle = 2)  returns 0x00 (0000ms, 3247ms total)
T3D98 307:963 JLINK_Go() -- CPU_WriteMem(4 bytes @ 0xE0002000) -- CPU_WriteMem(4 bytes @ 0xE0002000) -- CPU_ReadMem(4 bytes @ 0xE0001000) -- CPU_WriteMem(4 bytes @ 0xE000ED30) -- CPU_WriteMem(4 bytes @ 0xE0001000) -- CPU_WriteMem(4 bytes @ 0xE0002008) -- CPU_WriteMem(4 bytes @ 0xE000200C) -- CPU_WriteMem(4 bytes @ 0xE0002010) -- CPU_WriteMem(4 bytes @ 0xE0002014) -- CPU_WriteMem(4 bytes @ 0xE0001004) (0004ms, 3251ms total)
T2FE8 307:967 JLINK_IsHalted() -- CPU is running -- CPU_ReadMem(4 bytes @ 0x41002100)  returns FALSE (0001ms, 3252ms total)
T2FE8 307:988 JLINK_IsHalted()  returns TRUE (0002ms, 3253ms total)
T2FE8 307:990 JLINK_GetMOEs(...) -- CPU_ReadMem(4 bytes @ 0xE000ED30)  returns 0x01 (0000ms, 3251ms total)
T2FE8 307:990 JLINK_ReadReg(R15 (PC))  returns 0x00004DBC (0000ms, 3251ms total)
T2FE8 307:990 JLINK_WriteU32(0xE000EDFC, 0x01000000) -- CPU_WriteMem(4 bytes @ 0xE000EDFC)  returns 0x00 (0001ms, 3252ms total)
T2FE8 307:991 JLINK_ReadMem (0xE0001000, 0x0004 Bytes, ...) -- CPU_ReadMem(4 bytes @ 0xE0001000) - Data: 00 00 00 20  returns 0x00 (0000ms, 3252ms total)
T2FE8 307:991 JLINK_WriteU32(0xE0001000, 0x20000001)  returns 0x00 (0000ms, 3252ms total)
T2FE8 307:991 JLINK_WriteU32(0xE0001028, 0x00000100)  returns 0x00 (0000ms, 3252ms total)
T2FE8 307:991 JLINK_ReadMem (0xE0001028, 0x0004 Bytes, ...) -- CPU_WriteMem(4 bytes @ 0xE0001028) -- CPU_ReadMem(4 bytes @ 0xE0001028) - Data: 00 00 00 00  returns 0x00 (0001ms, 3253ms total)
T2FE8 307:992 JLINK_WriteU32(0xE0001024, 0x0000001F)  returns 0x00 (0000ms, 3253ms total)
T2FE8 307:992 JLINK_ReadMem (0xE0001024, 0x0004 Bytes, ...) -- CPU_WriteMem(4 bytes @ 0xE0001024) -- CPU_ReadMem(4 bytes @ 0xE0001024) - Data: 1F 00 00 00  returns 0x00 (0000ms, 3253ms total)
T2FE8 307:992 JLINK_WriteU32(0xE0001038, 0x00000100)  returns 0x00 (0000ms, 3253ms total)
T2FE8 307:992 JLINK_ReadMem (0xE0001038, 0x0004 Bytes, ...) -- CPU_WriteMem(4 bytes @ 0xE0001038) -- CPU_ReadMem(4 bytes @ 0xE0001038) - Data: 00 00 00 00  returns 0x00 (0001ms, 3254ms total)
T2FE8 307:993 JLINK_WriteU32(0xE0001034, 0x0000001F)  returns 0x00 (0000ms, 3254ms total)
T2FE8 307:993 JLINK_ReadMem (0xE0001034, 0x0004 Bytes, ...) -- CPU_WriteMem(4 bytes @ 0xE0001034) -- CPU_ReadMem(4 bytes @ 0xE0001034) - Data: 1F 00 00 00  returns 0x00 (0001ms, 3255ms total)
T2FE8 307:994 JLINK_WriteU32(0xE0001020, 0x00000000)  returns 0x00 (0000ms, 3255ms total)
T2FE8 307:994 JLINK_WriteU32(0xE0001024, 0x00000000)  returns 0x00 (0000ms, 3255ms total)
T2FE8 307:994 JLINK_WriteU32(0xE0001028, 0x00000000)  returns 0x00 (0000ms, 3255ms total)
T2FE8 307:994 JLINK_WriteU32(0xE0001030, 0x00000000)  returns 0x00 (0000ms, 3255ms total)
T2FE8 307:994 JLINK_WriteU32(0xE0001034, 0x00000000)  returns 0x00 (0000ms, 3255ms total)
T2FE8 307:994 JLINK_WriteU32(0xE0001038, 0x00000000)  returns 0x00 (0000ms, 3255ms total)
T2FE8 307:994 JLINK_GetBPInfo(BPHandle = 2)  returns 0x00 (0000ms, 3255ms total)
T2FE8 307:994 JLINK_ClrBPEx(BPHandle = 0x00000002)  returns 0x00 (0000ms, 3255ms total)
T3D98 307:997 JLINK_ReadReg(R15 (PC))  returns 0x00004DBC (0000ms, 3255ms total)
T3D98 307:997 JLINK_ReadReg(R13 (SP))  returns 0x20002FD0 (0000ms, 3255ms total)
T3D98 307:997 JLINK_ReadMemHW(0x00004DBC, 0x0004 Bytes, ...) -- CPU_ReadMem(4 bytes @ 0x00004DBC) - Data: F0 B5 8F B0  returns 0x00 (0000ms, 3255ms total)
T3D98 308:008 JLINK_ReadReg(R15 (PC))  returns 0x00004DBC (0000ms, 3255ms total)
T3D98 308:008 JLINK_Go() -- CPU_WriteMem(4 bytes @ 0xE0002000) -- CPU_WriteMem(4 bytes @ 0xE0001000) -- CPU_ReadMem(4 bytes @ 0xE0001000) -- CPU_WriteMem(4 bytes @ 0xE000ED30) -- CPU_WriteMem(4 bytes @ 0xE0001000) -- CPU_WriteMem(4 bytes @ 0xE0001020) -- CPU_WriteMem(4 bytes @ 0xE0001030) -- CPU_WriteMem(4 bytes @ 0xE0001024) -- CPU_WriteMem(4 bytes @ 0xE0001034) -- CPU_WriteMem(4 bytes @ 0xE0001028) -- CPU_WriteMem(4 bytes @ 0xE0001038) -- CPU_WriteMem(4 bytes @ 0xE000200C) (0005ms, 3260ms total)
T2FE8 308:013 JLINK_IsHalted() -- CPU is running -- CPU_ReadMem(4 bytes @ 0x41002100)  returns FALSE (0000ms, 3260ms total)
T2FE8 308:053 JLINK_IsHalted() -- CPU is running -- CPU_ReadMem(4 bytes @ 0x41002100)  returns FALSE (0000ms, 3260ms total)
T2FE8 308:213 JLINK_IsHalted() -- CPU is running -- CPU_ReadMem(4 bytes @ 0x41002100)  returns FALSE (0000ms, 3260ms total)
T2FE8 308:413 JLINK_IsHalted() -- CPU is running -- CPU_ReadMem(4 bytes @ 0x41002100)  returns FALSE (0000ms, 3260ms total)
T1C20 308:601 JLINK_EMU_GetList(InterfaceMask = 0x00000001, MaxInfos = 0x00000032) [0]: USB, S/N: 28007034  returns 0x01 (0000ms, 3260ms total)
T2FE8 308:613 JLINK_IsHalted() -- CPU is running -- CPU_ReadMem(4 bytes @ 0x41002100)  returns FALSE (0000ms, 3260ms total)
T2FE8 308:814 JLINK_IsHalted() -- CPU is running -- CPU_ReadMem(4 bytes @ 0x41002100)  returns FALSE (0000ms, 3260ms total)
T2FE8 309:015 JLINK_IsHalted() -- CPU is running -- CPU_ReadMem(4 bytes @ 0x41002100)  returns FALSE (0000ms, 3260ms total)
T2FE8 309:215 JLINK_IsHalted() -- CPU is running -- CPU_ReadMem(4 bytes @ 0x41002100)  returns FALSE (0000ms, 3260ms total)
T2FE8 309:415 JLINK_IsHalted() -- CPU is running -- CPU_ReadMem(4 bytes @ 0x41002100)  returns FALSE (0000ms, 3260ms total)
T2FE8 309:616 JLINK_IsHalted() -- CPU is running -- CPU_ReadMem(4 bytes @ 0x41002100)  returns FALSE (0000ms, 3260ms total)
T2FE8 309:816 JLINK_IsHalted()  returns TRUE (0002ms, 3262ms total)
T2FE8 309:818 JLINK_GetMOEs(...) -- CPU_ReadMem(4 bytes @ 0xE000ED30)  returns 0x01 (0000ms, 3260ms total)
T2FE8 309:818 JLINK_ReadReg(R15 (PC))  returns 0x00004E76 (0000ms, 3260ms total)
T3D98 309:828 JLINK_ReadReg(R15 (PC))  returns 0x00004E76 (0000ms, 3260ms total)
T3D98 309:828 JLINK_ReadReg(R13 (SP))  returns 0x20002F80 (0000ms, 3260ms total)
T3D98 309:828 JLINK_ReadMemHW(0x00004E76, 0x0004 Bytes, ...) -- CPU_ReadMem(4 bytes @ 0x00004E76) - Data: BF 49 BF 4B  returns 0x00 (0000ms, 3260ms total)
T3D98 309:829 JLINK_ReadReg(R0)  returns 0x00000000 (0000ms, 3260ms total)
T3D98 309:829 JLINK_ReadReg(R1)  returns 0x00000000 (0000ms, 3260ms total)
T3D98 309:829 JLINK_ReadReg(R2)  returns 0x20000298 (0000ms, 3260ms total)
T3D98 309:829 JLINK_ReadReg(R3)  returns 0x00000000 (0000ms, 3260ms total)
T3D98 309:829 JLINK_ReadReg(R4)  returns 0x00000000 (0000ms, 3260ms total)
T3D98 309:829 JLINK_ReadReg(R5)  returns 0x007A1200 (0000ms, 3260ms total)
T3D98 309:829 JLINK_ReadReg(R6)  returns 0x00000000 (0000ms, 3260ms total)
T3D98 309:829 JLINK_ReadReg(R7)  returns 0x20002F80 (0000ms, 3260ms total)
T3D98 309:829 JLINK_ReadReg(R8)  returns 0xBFFDFFEB (0000ms, 3260ms total)
T3D98 309:829 JLINK_ReadReg(R9)  returns 0xF7DFFFD7 (0000ms, 3260ms total)
T3D98 309:829 JLINK_ReadReg(R10)  returns 0xC7BFFD7E (0000ms, 3260ms total)
T3D98 309:829 JLINK_ReadReg(R11)  returns 0x7FDFFFFB (0000ms, 3260ms total)
T3D98 309:829 JLINK_ReadReg(R12)  returns 0x00000000 (0000ms, 3260ms total)
T3D98 309:829 JLINK_ReadReg(R13 (SP))  returns 0x20002F80 (0000ms, 3260ms total)
T3D98 309:829 JLINK_ReadReg(R14)  returns 0x00004E19 (0000ms, 3260ms total)
T3D98 309:829 JLINK_ReadReg(R15 (PC))  returns 0x00004E76 (0000ms, 3260ms total)
T3D98 309:829 JLINK_ReadReg(XPSR)  returns 0x61000000 (0000ms, 3260ms total)
T3D98 309:829 JLINK_ReadReg(MSP)  returns 0x20002F80 (0000ms, 3260ms total)
T3D98 309:829 JLINK_ReadReg(PSP)  returns 0xFFFFFFBC (0000ms, 3260ms total)
T3D98 309:829 JLINK_ReadReg(PRIMASK)  returns 0x00000000 (0000ms, 3260ms total)
T3D98 309:829 JLINK_ReadReg(BASEPRI)  returns 0x00000000 (0000ms, 3260ms total)
T3D98 309:829 JLINK_ReadReg(FAULTMASK)  returns 0x00000000 (0000ms, 3260ms total)
T3D98 309:829 JLINK_ReadReg(CONTROL)  returns 0x00000000 (0000ms, 3260ms total)
T3554 309:883 JLINK_ReadMemHW(0x00000000, 0x045C Bytes, ...) -- CPU_ReadMem(1116 bytes @ 0x00000000) - Data: E0 2F 00 20 35 4C 00 00 2D 4D 00 00 2D 4D 00 00 ...  returns 0x00 (0009ms, 3269ms total)
T1C20 309:916 JLINK_EMU_GetList(InterfaceMask = 0x00000001, MaxInfos = 0x00000032) [0]: USB, S/N: 28007034  returns 0x01 (0000ms, 3269ms total)
T3554 309:939 JLINK_ReadMemHW(0x0000045C, 0x00BA Bytes, ...) -- CPU_ReadMem(186 bytes @ 0x0000045C) - Data: 98 47 C0 46 BD 46 04 B0 80 BD C0 46 00 18 00 40 ...  returns 0x00 (0001ms, 3270ms total)
T3554 309:952 JLINK_ReadMemHW(0x00000516, 0x0111 Bytes, ...) -- CPU_ReadMem(273 bytes @ 0x00000516) - Data: 80 BD 80 B5 84 B0 00 AF 02 00 39 60 FB 1D 1A 70 ...  returns 0x00 (0004ms, 3274ms total)
T2FE8 310:019 JLINK_IsHalted()  returns TRUE (0000ms, 3274ms total)
T2FE8 310:219 JLINK_IsHalted()  returns TRUE (0000ms, 3274ms total)
T2FE8 310:419 JLINK_IsHalted()  returns TRUE (0000ms, 3274ms total)
T2FE8 310:620 JLINK_IsHalted()  returns TRUE (0000ms, 3274ms total)
T2FE8 310:820 JLINK_IsHalted()  returns TRUE (0000ms, 3274ms total)
T2FE8 311:020 JLINK_IsHalted()  returns TRUE (0000ms, 3274ms total)
T2FE8 311:221 JLINK_IsHalted()  returns TRUE (0000ms, 3274ms total)
T1C20 311:231 JLINK_EMU_GetList(InterfaceMask = 0x00000001, MaxInfos = 0x00000032) [0]: USB, S/N: 28007034  returns 0x01 (0000ms, 3274ms total)
T2FE8 311:421 JLINK_IsHalted()  returns TRUE (0000ms, 3274ms total)
T3D98 311:507 JLINK_ReadReg(R15 (PC))  returns 0x00004E76 (0000ms, 3274ms total)
T3D98 311:507 JLINK_GetBPInfo(BPHandle = 1)  returns 0x00 (0000ms, 3274ms total)
T3D98 311:507 JLINK_ClrBPEx(BPHandle = 0x00000001)  returns 0x00 (0000ms, 3274ms total)
T3D98 311:507 JLINK_Step() -- Read from flash cache (2 bytes @ 0x00004E76) -- CPU_ReadMem(4 bytes @ 0xE000ED18) -- CPU_WriteMem(4 bytes @ 0xE000ED18) -- CPU_ReadMem(4 bytes @ 0xE000ED18) -- CPU_WriteMem(4 bytes @ 0xE000ED18) -- CPU_ReadMem(4 bytes @ 0xE0001004) -- Read from flash cache (4 bytes @ 0x00005174) -- Simulated  returns 0x00 (0003ms, 3277ms total)
T3D98 311:510 JLINK_SetBPEx(Addr = 0x00004E76, Type = 0xFFFFFFF2)  returns 0x00000003 (0000ms, 3277ms total)
T3D98 311:510 JLINK_GetBPInfo(BPHandle = 3)  returns 0x00 (0000ms, 3277ms total)
T2FE8 311:510 JLINK_IsHalted()  returns TRUE (0000ms, 3277ms total)
T2FE8 311:510 JLINK_GetMOEs(...)  returns 0x01 (0000ms, 3277ms total)
T2FE8 311:510 JLINK_ReadReg(R15 (PC))  returns 0x00004E78 (0000ms, 3277ms total)
T3D98 311:520 JLINK_ReadReg(R15 (PC))  returns 0x00004E78 (0000ms, 3277ms total)
T3D98 311:520 JLINK_ReadReg(R13 (SP))  returns 0x20002F80 (0000ms, 3277ms total)
T3D98 311:520 JLINK_ReadMemHW(0x00004E78, 0x0004 Bytes, ...) -- CPU_ReadMem(4 bytes @ 0x00004E78) - Data: BF 4B 07 22  returns 0x00 (0000ms, 3277ms total)
T3D98 311:520 JLINK_ReadReg(R0)  returns 0x00000000 (0000ms, 3277ms total)
T3D98 311:520 JLINK_ReadReg(R1)  returns 0x00006E28 (0000ms, 3277ms total)
T3D98 311:520 JLINK_ReadReg(R2)  returns 0x20000298 (0000ms, 3277ms total)
T3D98 311:520 JLINK_ReadReg(R3)  returns 0x00000000 (0000ms, 3277ms total)
T3D98 311:520 JLINK_ReadReg(R4)  returns 0x00000000 (0000ms, 3277ms total)
T3D98 311:520 JLINK_ReadReg(R5)  returns 0x007A1200 (0000ms, 3277ms total)
T3D98 311:520 JLINK_ReadReg(R6)  returns 0x00000000 (0000ms, 3277ms total)
T3D98 311:520 JLINK_ReadReg(R7)  returns 0x20002F80 (0000ms, 3277ms total)
T3D98 311:520 JLINK_ReadReg(R8)  returns 0xBFFDFFEB (0000ms, 3277ms total)
T3D98 311:520 JLINK_ReadReg(R9)  returns 0xF7DFFFD7 (0000ms, 3277ms total)
T3D98 311:520 JLINK_ReadReg(R10)  returns 0xC7BFFD7E (0000ms, 3277ms total)
T3D98 311:520 JLINK_ReadReg(R11)  returns 0x7FDFFFFB (0000ms, 3277ms total)
T3D98 311:520 JLINK_ReadReg(R12)  returns 0x00000000 (0000ms, 3277ms total)
T3D98 311:520 JLINK_ReadReg(R13 (SP))  returns 0x20002F80 (0000ms, 3277ms total)
T3D98 311:520 JLINK_ReadReg(R14)  returns 0x00004E19 (0000ms, 3277ms total)
T3D98 311:520 JLINK_ReadReg(R15 (PC))  returns 0x00004E78 (0000ms, 3277ms total)
T3D98 311:520 JLINK_ReadReg(XPSR)  returns 0x61000000 (0000ms, 3277ms total)
T3D98 311:520 JLINK_ReadReg(MSP)  returns 0x20002F80 (0000ms, 3277ms total)
T3D98 311:520 JLINK_ReadReg(PSP)  returns 0xFFFFFFBC (0000ms, 3277ms total)
T3D98 311:520 JLINK_ReadReg(PRIMASK)  returns 0x00000000 (0000ms, 3277ms total)
T3D98 311:520 JLINK_ReadReg(BASEPRI)  returns 0x00000000 (0000ms, 3277ms total)
T3D98 311:520 JLINK_ReadReg(FAULTMASK)  returns 0x00000000 (0000ms, 3277ms total)
T3D98 311:520 JLINK_ReadReg(CONTROL)  returns 0x00000000 (0000ms, 3277ms total)
T3D98 311:520 JLINK_ReadReg(R15 (PC))  returns 0x00004E78 (0000ms, 3277ms total)
T3D98 311:520 JLINK_Step() -- Read from flash cache (2 bytes @ 0x00004E78) -- Read from flash cache (4 bytes @ 0x00005178) -- Simulated  returns 0x00 (0000ms, 3277ms total)
T2FE8 311:520 JLINK_IsHalted()  returns TRUE (0000ms, 3277ms total)
T2FE8 311:520 JLINK_GetMOEs(...)  returns 0x01 (0000ms, 3277ms total)
T2FE8 311:520 JLINK_ReadReg(R15 (PC))  returns 0x00004E7A (0000ms, 3277ms total)
T3D98 311:531 JLINK_ReadReg(R15 (PC))  returns 0x00004E7A (0000ms, 3277ms total)
T3D98 311:531 JLINK_ReadReg(R13 (SP))  returns 0x20002F80 (0000ms, 3277ms total)
T3D98 311:531 JLINK_ReadMemHW(0x00004E7A, 0x0004 Bytes, ...) -- CPU_ReadMem(4 bytes @ 0x00004E7A) - Data: 07 22 18 00  returns 0x00 (0001ms, 3278ms total)
T3D98 311:532 JLINK_ReadReg(R0)  returns 0x00000000 (0000ms, 3278ms total)
T3D98 311:532 JLINK_ReadReg(R1)  returns 0x00006E28 (0000ms, 3278ms total)
T3D98 311:532 JLINK_ReadReg(R2)  returns 0x20000298 (0000ms, 3278ms total)
T3D98 311:532 JLINK_ReadReg(R3)  returns 0x20000744 (0000ms, 3278ms total)
T3D98 311:532 JLINK_ReadReg(R4)  returns 0x00000000 (0000ms, 3278ms total)
T3D98 311:532 JLINK_ReadReg(R5)  returns 0x007A1200 (0000ms, 3278ms total)
T3D98 311:532 JLINK_ReadReg(R6)  returns 0x00000000 (0000ms, 3278ms total)
T3D98 311:532 JLINK_ReadReg(R7)  returns 0x20002F80 (0000ms, 3278ms total)
T3D98 311:532 JLINK_ReadReg(R8)  returns 0xBFFDFFEB (0000ms, 3278ms total)
T3D98 311:532 JLINK_ReadReg(R9)  returns 0xF7DFFFD7 (0000ms, 3278ms total)
T3D98 311:532 JLINK_ReadReg(R10)  returns 0xC7BFFD7E (0000ms, 3278ms total)
T3D98 311:532 JLINK_ReadReg(R11)  returns 0x7FDFFFFB (0000ms, 3278ms total)
T3D98 311:532 JLINK_ReadReg(R12)  returns 0x00000000 (0000ms, 3278ms total)
T3D98 311:532 JLINK_ReadReg(R13 (SP))  returns 0x20002F80 (0000ms, 3278ms total)
T3D98 311:532 JLINK_ReadReg(R14)  returns 0x00004E19 (0000ms, 3278ms total)
T3D98 311:532 JLINK_ReadReg(R15 (PC))  returns 0x00004E7A (0000ms, 3278ms total)
T3D98 311:532 JLINK_ReadReg(XPSR)  returns 0x61000000 (0000ms, 3278ms total)
T3D98 311:532 JLINK_ReadReg(MSP)  returns 0x20002F80 (0000ms, 3278ms total)
T3D98 311:532 JLINK_ReadReg(PSP)  returns 0xFFFFFFBC (0000ms, 3278ms total)
T3D98 311:532 JLINK_ReadReg(PRIMASK)  returns 0x00000000 (0000ms, 3278ms total)
T3D98 311:532 JLINK_ReadReg(BASEPRI)  returns 0x00000000 (0000ms, 3278ms total)
T3D98 311:532 JLINK_ReadReg(FAULTMASK)  returns 0x00000000 (0000ms, 3278ms total)
T3D98 311:532 JLINK_ReadReg(CONTROL)  returns 0x00000000 (0000ms, 3278ms total)
T3D98 311:532 JLINK_ReadReg(R15 (PC))  returns 0x00004E7A (0000ms, 3278ms total)
T3D98 311:532 JLINK_Step() -- Read from flash cache (2 bytes @ 0x00004E7A) -- Simulated  returns 0x00 (0000ms, 3278ms total)
T2FE8 311:532 JLINK_IsHalted()  returns TRUE (0000ms, 3278ms total)
T2FE8 311:532 JLINK_GetMOEs(...)  returns 0x01 (0000ms, 3278ms total)
T2FE8 311:532 JLINK_ReadReg(R15 (PC))  returns 0x00004E7C (0000ms, 3278ms total)
T3D98 311:542 JLINK_ReadReg(R15 (PC))  returns 0x00004E7C (0000ms, 3278ms total)
T3D98 311:542 JLINK_ReadReg(R13 (SP))  returns 0x20002F80 (0000ms, 3278ms total)
T3D98 311:542 JLINK_ReadMemHW(0x00004E7C, 0x0004 Bytes, ...) -- CPU_ReadMem(4 bytes @ 0x00004E7C) - Data: 18 00 BF 4B  returns 0x00 (0000ms, 3278ms total)
T3D98 311:542 JLINK_ReadReg(R0)  returns 0x00000000 (0000ms, 3278ms total)
T3D98 311:542 JLINK_ReadReg(R1)  returns 0x00006E28 (0000ms, 3278ms total)
T3D98 311:542 JLINK_ReadReg(R2)  returns 0x00000007 (0001ms, 3279ms total)
T3D98 311:543 JLINK_ReadReg(R3)  returns 0x20000744 (0000ms, 3279ms total)
T3D98 311:543 JLINK_ReadReg(R4)  returns 0x00000000 (0000ms, 3279ms total)
T3D98 311:543 JLINK_ReadReg(R5)  returns 0x007A1200 (0000ms, 3279ms total)
T3D98 311:543 JLINK_ReadReg(R6)  returns 0x00000000 (0000ms, 3279ms total)
T3D98 311:543 JLINK_ReadReg(R7)  returns 0x20002F80 (0000ms, 3279ms total)
T3D98 311:543 JLINK_ReadReg(R8)  returns 0xBFFDFFEB (0000ms, 3279ms total)
T3D98 311:543 JLINK_ReadReg(R9)  returns 0xF7DFFFD7 (0000ms, 3279ms total)
T3D98 311:543 JLINK_ReadReg(R10)  returns 0xC7BFFD7E (0000ms, 3279ms total)
T3D98 311:543 JLINK_ReadReg(R11)  returns 0x7FDFFFFB (0000ms, 3279ms total)
T3D98 311:543 JLINK_ReadReg(R12)  returns 0x00000000 (0000ms, 3279ms total)
T3D98 311:543 JLINK_ReadReg(R13 (SP))  returns 0x20002F80 (0000ms, 3279ms total)
T3D98 311:543 JLINK_ReadReg(R14)  returns 0x00004E19 (0000ms, 3279ms total)
T3D98 311:543 JLINK_ReadReg(R15 (PC))  returns 0x00004E7C (0000ms, 3279ms total)
T3D98 311:543 JLINK_ReadReg(XPSR)  returns 0x21000000 (0000ms, 3279ms total)
T3D98 311:543 JLINK_ReadReg(MSP)  returns 0x20002F80 (0000ms, 3279ms total)
T3D98 311:543 JLINK_ReadReg(PSP)  returns 0xFFFFFFBC (0000ms, 3279ms total)
T3D98 311:543 JLINK_ReadReg(PRIMASK)  returns 0x00000000 (0000ms, 3279ms total)
T3D98 311:543 JLINK_ReadReg(BASEPRI)  returns 0x00000000 (0000ms, 3279ms total)
T3D98 311:543 JLINK_ReadReg(FAULTMASK)  returns 0x00000000 (0000ms, 3279ms total)
T3D98 311:543 JLINK_ReadReg(CONTROL)  returns 0x00000000 (0000ms, 3279ms total)
T3D98 311:543 JLINK_ReadReg(R15 (PC))  returns 0x00004E7C (0000ms, 3279ms total)
T3D98 311:543 JLINK_Step() -- Read from flash cache (2 bytes @ 0x00004E7C) -- Simulated  returns 0x00 (0000ms, 3279ms total)
T2FE8 311:543 JLINK_IsHalted()  returns TRUE (0000ms, 3279ms total)
T2FE8 311:543 JLINK_GetMOEs(...)  returns 0x01 (0000ms, 3279ms total)
T2FE8 311:543 JLINK_ReadReg(R15 (PC))  returns 0x00004E7E (0000ms, 3279ms total)
T3D98 311:553 JLINK_ReadReg(R15 (PC))  returns 0x00004E7E (0000ms, 3279ms total)
T3D98 311:553 JLINK_ReadReg(R13 (SP))  returns 0x20002F80 (0000ms, 3279ms total)
T3D98 311:553 JLINK_ReadMemHW(0x00004E7E, 0x0004 Bytes, ...) -- CPU_ReadMem(4 bytes @ 0x00004E7E) - Data: BF 4B 98 47  returns 0x00 (0000ms, 3279ms total)
T3D98 311:554 JLINK_ReadReg(R0)  returns 0x20000744 (0000ms, 3279ms total)
T3D98 311:554 JLINK_ReadReg(R1)  returns 0x00006E28 (0000ms, 3279ms total)
T3D98 311:554 JLINK_ReadReg(R2)  returns 0x00000007 (0000ms, 3279ms total)
T3D98 311:554 JLINK_ReadReg(R3)  returns 0x20000744 (0000ms, 3279ms total)
T3D98 311:554 JLINK_ReadReg(R4)  returns 0x00000000 (0000ms, 3279ms total)
T3D98 311:554 JLINK_ReadReg(R5)  returns 0x007A1200 (0000ms, 3279ms total)
T3D98 311:554 JLINK_ReadReg(R6)  returns 0x00000000 (0000ms, 3279ms total)
T3D98 311:554 JLINK_ReadReg(R7)  returns 0x20002F80 (0000ms, 3279ms total)
T3D98 311:554 JLINK_ReadReg(R8)  returns 0xBFFDFFEB (0000ms, 3279ms total)
T3D98 311:554 JLINK_ReadReg(R9)  returns 0xF7DFFFD7 (0000ms, 3279ms total)
T3D98 311:554 JLINK_ReadReg(R10)  returns 0xC7BFFD7E (0000ms, 3279ms total)
T3D98 311:554 JLINK_ReadReg(R11)  returns 0x7FDFFFFB (0000ms, 3279ms total)
T3D98 311:554 JLINK_ReadReg(R12)  returns 0x00000000 (0000ms, 3279ms total)
T3D98 311:554 JLINK_ReadReg(R13 (SP))  returns 0x20002F80 (0000ms, 3279ms total)
T3D98 311:554 JLINK_ReadReg(R14)  returns 0x00004E19 (0000ms, 3279ms total)
T3D98 311:554 JLINK_ReadReg(R15 (PC))  returns 0x00004E7E (0000ms, 3279ms total)
T3D98 311:554 JLINK_ReadReg(XPSR)  returns 0x21000000 (0000ms, 3279ms total)
T3D98 311:554 JLINK_ReadReg(MSP)  returns 0x20002F80 (0000ms, 3279ms total)
T3D98 311:554 JLINK_ReadReg(PSP)  returns 0xFFFFFFBC (0000ms, 3279ms total)
T3D98 311:554 JLINK_ReadReg(PRIMASK)  returns 0x00000000 (0000ms, 3279ms total)
T3D98 311:554 JLINK_ReadReg(BASEPRI)  returns 0x00000000 (0000ms, 3279ms total)
T3D98 311:554 JLINK_ReadReg(FAULTMASK)  returns 0x00000000 (0000ms, 3279ms total)
T3D98 311:554 JLINK_ReadReg(CONTROL)  returns 0x00000000 (0000ms, 3279ms total)
T3D98 311:554 JLINK_ReadReg(R15 (PC))  returns 0x00004E7E (0000ms, 3279ms total)
T3D98 311:554 JLINK_Step() -- Read from flash cache (2 bytes @ 0x00004E7E) -- Read from flash cache (4 bytes @ 0x0000517C) -- Simulated  returns 0x00 (0000ms, 3279ms total)
T2FE8 311:554 JLINK_IsHalted()  returns TRUE (0000ms, 3279ms total)
T2FE8 311:554 JLINK_GetMOEs(...)  returns 0x01 (0000ms, 3279ms total)
T2FE8 311:554 JLINK_ReadReg(R15 (PC))  returns 0x00004E80 (0000ms, 3279ms total)
T3D98 311:564 JLINK_ReadReg(R15 (PC))  returns 0x00004E80 (0000ms, 3279ms total)
T3D98 311:564 JLINK_ReadReg(R13 (SP))  returns 0x20002F80 (0000ms, 3279ms total)
T3D98 311:564 JLINK_ReadMemHW(0x00004E80, 0x0004 Bytes, ...) -- CPU_ReadMem(4 bytes @ 0x00004E80) - Data: 98 47 03 1E  returns 0x00 (0000ms, 3279ms total)
T3D98 311:565 JLINK_ReadReg(R0)  returns 0x20000744 (0000ms, 3279ms total)
T3D98 311:565 JLINK_ReadReg(R1)  returns 0x00006E28 (0000ms, 3279ms total)
T3D98 311:565 JLINK_ReadReg(R2)  returns 0x00000007 (0000ms, 3279ms total)
T3D98 311:565 JLINK_ReadReg(R3)  returns 0x0000581F (0000ms, 3279ms total)
T3D98 311:565 JLINK_ReadReg(R4)  returns 0x00000000 (0000ms, 3279ms total)
T3D98 311:565 JLINK_ReadReg(R5)  returns 0x007A1200 (0000ms, 3279ms total)
T3D98 311:565 JLINK_ReadReg(R6)  returns 0x00000000 (0000ms, 3279ms total)
T3D98 311:565 JLINK_ReadReg(R7)  returns 0x20002F80 (0000ms, 3279ms total)
T3D98 311:565 JLINK_ReadReg(R8)  returns 0xBFFDFFEB (0000ms, 3279ms total)
T3D98 311:565 JLINK_ReadReg(R9)  returns 0xF7DFFFD7 (0000ms, 3279ms total)
T3D98 311:565 JLINK_ReadReg(R10)  returns 0xC7BFFD7E (0000ms, 3279ms total)
T3D98 311:565 JLINK_ReadReg(R11)  returns 0x7FDFFFFB (0000ms, 3279ms total)
T3D98 311:565 JLINK_ReadReg(R12)  returns 0x00000000 (0000ms, 3279ms total)
T3D98 311:565 JLINK_ReadReg(R13 (SP))  returns 0x20002F80 (0000ms, 3279ms total)
T3D98 311:565 JLINK_ReadReg(R14)  returns 0x00004E19 (0000ms, 3279ms total)
T3D98 311:565 JLINK_ReadReg(R15 (PC))  returns 0x00004E80 (0000ms, 3279ms total)
T3D98 311:565 JLINK_ReadReg(XPSR)  returns 0x21000000 (0000ms, 3279ms total)
T3D98 311:565 JLINK_ReadReg(MSP)  returns 0x20002F80 (0000ms, 3279ms total)
T3D98 311:565 JLINK_ReadReg(PSP)  returns 0xFFFFFFBC (0000ms, 3279ms total)
T3D98 311:565 JLINK_ReadReg(PRIMASK)  returns 0x00000000 (0000ms, 3279ms total)
T3D98 311:565 JLINK_ReadReg(BASEPRI)  returns 0x00000000 (0000ms, 3279ms total)
T3D98 311:565 JLINK_ReadReg(FAULTMASK)  returns 0x00000000 (0000ms, 3279ms total)
T3D98 311:565 JLINK_ReadReg(CONTROL)  returns 0x00000000 (0000ms, 3279ms total)
T3D98 311:565 JLINK_ReadReg(R15 (PC))  returns 0x00004E80 (0000ms, 3279ms total)
T3D98 311:565 JLINK_Step() -- Read from flash cache (2 bytes @ 0x00004E80) -- Simulated  returns 0x00 (0000ms, 3279ms total)
T2FE8 311:565 JLINK_IsHalted()  returns TRUE (0000ms, 3279ms total)
T2FE8 311:565 JLINK_GetMOEs(...)  returns 0x01 (0000ms, 3279ms total)
T2FE8 311:565 JLINK_ReadReg(R15 (PC))  returns 0x0000581E (0000ms, 3279ms total)
T3D98 311:575 JLINK_ReadReg(R15 (PC))  returns 0x0000581E (0000ms, 3279ms total)
T3D98 311:575 JLINK_ReadReg(R13 (SP))  returns 0x20002F80 (0000ms, 3279ms total)
T3D98 311:575 JLINK_ReadMemHW(0x0000581E, 0x0004 Bytes, ...) -- CPU_ReadMem(4 bytes @ 0x0000581E) - Data: 00 23 30 B5  returns 0x00 (0000ms, 3279ms total)
T3D98 311:575 JLINK_ReadReg(R0)  returns 0x20000744 (0000ms, 3279ms total)
T3D98 311:575 JLINK_ReadReg(R1)  returns 0x00006E28 (0001ms, 3280ms total)
T3D98 311:576 JLINK_ReadReg(R2)  returns 0x00000007 (0000ms, 3280ms total)
T3D98 311:576 JLINK_ReadReg(R3)  returns 0x0000581F (0000ms, 3280ms total)
T3D98 311:576 JLINK_ReadReg(R4)  returns 0x00000000 (0000ms, 3280ms total)
T3D98 311:576 JLINK_ReadReg(R5)  returns 0x007A1200 (0000ms, 3280ms total)
T3D98 311:576 JLINK_ReadReg(R6)  returns 0x00000000 (0000ms, 3280ms total)
T3D98 311:576 JLINK_ReadReg(R7)  returns 0x20002F80 (0000ms, 3280ms total)
T3D98 311:576 JLINK_ReadReg(R8)  returns 0xBFFDFFEB (0000ms, 3280ms total)
T3D98 311:576 JLINK_ReadReg(R9)  returns 0xF7DFFFD7 (0000ms, 3280ms total)
T3D98 311:576 JLINK_ReadReg(R10)  returns 0xC7BFFD7E (0000ms, 3280ms total)
T3D98 311:576 JLINK_ReadReg(R11)  returns 0x7FDFFFFB (0000ms, 3280ms total)
T3D98 311:576 JLINK_ReadReg(R12)  returns 0x00000000 (0000ms, 3280ms total)
T3D98 311:576 JLINK_ReadReg(R13 (SP))  returns 0x20002F80 (0000ms, 3280ms total)
T3D98 311:576 JLINK_ReadReg(R14)  returns 0x00004E83 (0000ms, 3280ms total)
T3D98 311:576 JLINK_ReadReg(R15 (PC))  returns 0x0000581E (0000ms, 3280ms total)
T3D98 311:576 JLINK_ReadReg(XPSR)  returns 0x21000000 (0000ms, 3280ms total)
T3D98 311:576 JLINK_ReadReg(MSP)  returns 0x20002F80 (0000ms, 3280ms total)
T3D98 311:576 JLINK_ReadReg(PSP)  returns 0xFFFFFFBC (0000ms, 3280ms total)
T3D98 311:576 JLINK_ReadReg(PRIMASK)  returns 0x00000000 (0000ms, 3280ms total)
T3D98 311:576 JLINK_ReadReg(BASEPRI)  returns 0x00000000 (0000ms, 3280ms total)
T3D98 311:576 JLINK_ReadReg(FAULTMASK)  returns 0x00000000 (0000ms, 3280ms total)
T3D98 311:576 JLINK_ReadReg(CONTROL)  returns 0x00000000 (0000ms, 3280ms total)
T3D98 311:576 JLINK_ReadMemHW(0x00004E82, 0x0004 Bytes, ...) -- CPU_ReadMem(4 bytes @ 0x00004E82) - Data: 03 1E 03 D1  returns 0x00 (0000ms, 3280ms total)
T3D98 311:577 JLINK_ReadMemHW(0x00004E82, 0x0002 Bytes, ...) -- CPU_ReadMem(2 bytes @ 0x00004E82) - Data: 03 1E  returns 0x00 (0000ms, 3280ms total)
T3D98 311:577 JLINK_ReadReg(R15 (PC))  returns 0x0000581E (0000ms, 3280ms total)
T3D98 311:577 JLINK_SetBPEx(Addr = 0x00004E82, Type = 0xFFFFFFF2)  returns 0x00000004 (0000ms, 3280ms total)
T3D98 311:577 JLINK_GetBPInfo(BPHandle = 4)  returns 0x00 (0000ms, 3280ms total)
T3D98 311:577 JLINK_Go() -- CPU_WriteMem(4 bytes @ 0xE0002000) -- CPU_WriteMem(4 bytes @ 0xE0002000) -- CPU_ReadMem(4 bytes @ 0xE0001000) -- CPU_WriteMem(4 bytes @ 0xE000ED30) -- CPU_WriteMem(4 bytes @ 0xE0001000) -- CPU_WriteMem(4 bytes @ 0xE000200C) -- CPU_WriteMem(4 bytes @ 0xE0001004) (0004ms, 3284ms total)
T2FE8 311:581 JLINK_IsHalted()  returns TRUE (0002ms, 3286ms total)
T2FE8 311:583 JLINK_GetMOEs(...) -- CPU_ReadMem(4 bytes @ 0xE000ED30)  returns 0x01 (0001ms, 3285ms total)
T2FE8 311:584 JLINK_ReadReg(R15 (PC))  returns 0x00004E82 (0000ms, 3285ms total)
T2FE8 311:584 JLINK_GetBPInfo(BPHandle = 4)  returns 0x00 (0000ms, 3285ms total)
T2FE8 311:584 JLINK_ClrBPEx(BPHandle = 0x00000004)  returns 0x00 (0000ms, 3285ms total)
T3D98 311:591 JLINK_ReadReg(R15 (PC))  returns 0x00004E82 (0000ms, 3285ms total)
T3D98 311:591 JLINK_ReadReg(R13 (SP))  returns 0x20002F80 (0000ms, 3285ms total)
T3D98 311:591 JLINK_ReadMemHW(0x00004E82, 0x0004 Bytes, ...) -- CPU_ReadMem(4 bytes @ 0x00004E82) - Data: 03 1E 03 D1  returns 0x00 (0000ms, 3285ms total)
T3D98 311:592 JLINK_ReadReg(R0)  returns 0xFFFFFFE0 (0000ms, 3285ms total)
T3D98 311:592 JLINK_ReadReg(R1)  returns 0x00006E28 (0000ms, 3285ms total)
T3D98 311:592 JLINK_ReadReg(R2)  returns 0x00000006 (0000ms, 3285ms total)
T3D98 311:592 JLINK_ReadReg(R3)  returns 0xFFFFFFE0 (0000ms, 3285ms total)
T3D98 311:592 JLINK_ReadReg(R4)  returns 0x00000000 (0000ms, 3285ms total)
T3D98 311:592 JLINK_ReadReg(R5)  returns 0x007A1200 (0000ms, 3285ms total)
T3D98 311:592 JLINK_ReadReg(R6)  returns 0x00000000 (0000ms, 3285ms total)
T3D98 311:592 JLINK_ReadReg(R7)  returns 0x20002F80 (0000ms, 3285ms total)
T3D98 311:592 JLINK_ReadReg(R8)  returns 0xBFFDFFEB (0000ms, 3285ms total)
T3D98 311:592 JLINK_ReadReg(R9)  returns 0xF7DFFFD7 (0000ms, 3285ms total)
T3D98 311:592 JLINK_ReadReg(R10)  returns 0xC7BFFD7E (0000ms, 3285ms total)
T3D98 311:592 JLINK_ReadReg(R11)  returns 0x7FDFFFFB (0000ms, 3285ms total)
T3D98 311:592 JLINK_ReadReg(R12)  returns 0x00000000 (0000ms, 3285ms total)
T3D98 311:592 JLINK_ReadReg(R13 (SP))  returns 0x20002F80 (0000ms, 3285ms total)
T3D98 311:592 JLINK_ReadReg(R14)  returns 0x00004E83 (0000ms, 3285ms total)
T3D98 311:592 JLINK_ReadReg(R15 (PC))  returns 0x00004E82 (0000ms, 3285ms total)
T3D98 311:592 JLINK_ReadReg(XPSR)  returns 0x81000000 (0000ms, 3285ms total)
T3D98 311:592 JLINK_ReadReg(MSP)  returns 0x20002F80 (0000ms, 3285ms total)
T3D98 311:592 JLINK_ReadReg(PSP)  returns 0xFFFFFFBC (0000ms, 3285ms total)
T3D98 311:592 JLINK_ReadReg(PRIMASK)  returns 0x00000000 (0000ms, 3285ms total)
T3D98 311:592 JLINK_ReadReg(BASEPRI)  returns 0x00000000 (0000ms, 3285ms total)
T3D98 311:592 JLINK_ReadReg(FAULTMASK)  returns 0x00000000 (0000ms, 3285ms total)
T3D98 311:592 JLINK_ReadReg(CONTROL)  returns 0x00000000 (0000ms, 3285ms total)
T3D98 311:592 JLINK_ReadReg(R15 (PC))  returns 0x00004E82 (0000ms, 3285ms total)
T3D98 311:592 JLINK_Step() -- Read from flash cache (2 bytes @ 0x00004E82) -- CPU_ReadMem(4 bytes @ 0xE0001004) -- Simulated  returns 0x00 (0001ms, 3286ms total)
T2FE8 311:593 JLINK_IsHalted()  returns TRUE (0000ms, 3286ms total)
T2FE8 311:593 JLINK_GetMOEs(...)  returns 0x01 (0000ms, 3286ms total)
T2FE8 311:593 JLINK_ReadReg(R15 (PC))  returns 0x00004E84 (0000ms, 3286ms total)
T3D98 311:603 JLINK_ReadReg(R15 (PC))  returns 0x00004E84 (0000ms, 3286ms total)
T3D98 311:603 JLINK_ReadReg(R13 (SP))  returns 0x20002F80 (0000ms, 3286ms total)
T3D98 311:603 JLINK_ReadMemHW(0x00004E84, 0x0004 Bytes, ...) -- CPU_ReadMem(4 bytes @ 0x00004E84) - Data: 03 D1 BE 4B  returns 0x00 (0000ms, 3286ms total)
T3D98 311:604 JLINK_ReadReg(R0)  returns 0xFFFFFFE0 (0000ms, 3286ms total)
T3D98 311:604 JLINK_ReadReg(R1)  returns 0x00006E28 (0000ms, 3286ms total)
T3D98 311:604 JLINK_ReadReg(R2)  returns 0x00000006 (0000ms, 3286ms total)
T3D98 311:604 JLINK_ReadReg(R3)  returns 0xFFFFFFE0 (0000ms, 3286ms total)
T3D98 311:604 JLINK_ReadReg(R4)  returns 0x00000000 (0000ms, 3286ms total)
T3D98 311:604 JLINK_ReadReg(R5)  returns 0x007A1200 (0000ms, 3286ms total)
T3D98 311:604 JLINK_ReadReg(R6)  returns 0x00000000 (0000ms, 3286ms total)
T3D98 311:604 JLINK_ReadReg(R7)  returns 0x20002F80 (0000ms, 3286ms total)
T3D98 311:604 JLINK_ReadReg(R8)  returns 0xBFFDFFEB (0000ms, 3286ms total)
T3D98 311:604 JLINK_ReadReg(R9)  returns 0xF7DFFFD7 (0000ms, 3286ms total)
T3D98 311:604 JLINK_ReadReg(R10)  returns 0xC7BFFD7E (0000ms, 3286ms total)
T3D98 311:604 JLINK_ReadReg(R11)  returns 0x7FDFFFFB (0000ms, 3286ms total)
T3D98 311:604 JLINK_ReadReg(R12)  returns 0x00000000 (0000ms, 3286ms total)
T3D98 311:604 JLINK_ReadReg(R13 (SP))  returns 0x20002F80 (0000ms, 3286ms total)
T3D98 311:604 JLINK_ReadReg(R14)  returns 0x00004E83 (0000ms, 3286ms total)
T3D98 311:604 JLINK_ReadReg(R15 (PC))  returns 0x00004E84 (0000ms, 3286ms total)
T3D98 311:604 JLINK_ReadReg(XPSR)  returns 0xA1000000 (0000ms, 3286ms total)
T3D98 311:604 JLINK_ReadReg(MSP)  returns 0x20002F80 (0000ms, 3286ms total)
T3D98 311:604 JLINK_ReadReg(PSP)  returns 0xFFFFFFBC (0000ms, 3286ms total)
T3D98 311:604 JLINK_ReadReg(PRIMASK)  returns 0x00000000 (0000ms, 3286ms total)
T3D98 311:604 JLINK_ReadReg(BASEPRI)  returns 0x00000000 (0000ms, 3286ms total)
T3D98 311:604 JLINK_ReadReg(FAULTMASK)  returns 0x00000000 (0000ms, 3286ms total)
T3D98 311:604 JLINK_ReadReg(CONTROL)  returns 0x00000000 (0000ms, 3286ms total)
T3D98 311:604 JLINK_ReadReg(R15 (PC))  returns 0x00004E84 (0000ms, 3286ms total)
T3D98 311:604 JLINK_Step() -- Read from flash cache (2 bytes @ 0x00004E84) -- Simulated  returns 0x00 (0000ms, 3286ms total)
T2FE8 311:604 JLINK_IsHalted()  returns TRUE (0000ms, 3286ms total)
T2FE8 311:604 JLINK_GetMOEs(...)  returns 0x01 (0000ms, 3286ms total)
T2FE8 311:604 JLINK_ReadReg(R15 (PC))  returns 0x00004E8E (0000ms, 3286ms total)
T3D98 311:614 JLINK_ReadReg(R15 (PC))  returns 0x00004E8E (0000ms, 3286ms total)
T3D98 311:614 JLINK_ReadReg(R13 (SP))  returns 0x20002F80 (0000ms, 3286ms total)
T3D98 311:614 JLINK_ReadMemHW(0x00004E8E, 0x0004 Bytes, ...) -- CPU_ReadMem(4 bytes @ 0x00004E8E) - Data: BE 4B 1B 78  returns 0x00 (0001ms, 3287ms total)
T3D98 311:615 JLINK_ReadReg(R0)  returns 0xFFFFFFE0 (0000ms, 3287ms total)
T3D98 311:615 JLINK_ReadReg(R1)  returns 0x00006E28 (0000ms, 3287ms total)
T3D98 311:615 JLINK_ReadReg(R2)  returns 0x00000006 (0000ms, 3287ms total)
T3D98 311:615 JLINK_ReadReg(R3)  returns 0xFFFFFFE0 (0000ms, 3287ms total)
T3D98 311:615 JLINK_ReadReg(R4)  returns 0x00000000 (0000ms, 3287ms total)
T3D98 311:615 JLINK_ReadReg(R5)  returns 0x007A1200 (0000ms, 3287ms total)
T3D98 311:615 JLINK_ReadReg(R6)  returns 0x00000000 (0000ms, 3287ms total)
T3D98 311:615 JLINK_ReadReg(R7)  returns 0x20002F80 (0000ms, 3287ms total)
T3D98 311:615 JLINK_ReadReg(R8)  returns 0xBFFDFFEB (0000ms, 3287ms total)
T3D98 311:615 JLINK_ReadReg(R9)  returns 0xF7DFFFD7 (0000ms, 3287ms total)
T3D98 311:615 JLINK_ReadReg(R10)  returns 0xC7BFFD7E (0000ms, 3287ms total)
T3D98 311:615 JLINK_ReadReg(R11)  returns 0x7FDFFFFB (0000ms, 3287ms total)
T3D98 311:615 JLINK_ReadReg(R12)  returns 0x00000000 (0000ms, 3287ms total)
T3D98 311:615 JLINK_ReadReg(R13 (SP))  returns 0x20002F80 (0000ms, 3287ms total)
T3D98 311:615 JLINK_ReadReg(R14)  returns 0x00004E83 (0000ms, 3287ms total)
T3D98 311:615 JLINK_ReadReg(R15 (PC))  returns 0x00004E8E (0000ms, 3287ms total)
T3D98 311:615 JLINK_ReadReg(XPSR)  returns 0xA1000000 (0000ms, 3287ms total)
T3D98 311:615 JLINK_ReadReg(MSP)  returns 0x20002F80 (0000ms, 3287ms total)
T3D98 311:615 JLINK_ReadReg(PSP)  returns 0xFFFFFFBC (0000ms, 3287ms total)
T3D98 311:615 JLINK_ReadReg(PRIMASK)  returns 0x00000000 (0000ms, 3287ms total)
T3D98 311:615 JLINK_ReadReg(BASEPRI)  returns 0x00000000 (0000ms, 3287ms total)
T3D98 311:615 JLINK_ReadReg(FAULTMASK)  returns 0x00000000 (0000ms, 3287ms total)
T3D98 311:615 JLINK_ReadReg(CONTROL)  returns 0x00000000 (0000ms, 3287ms total)
T3554 311:678 JLINK_ReadMemHW(0x00000000, 0x0627 Bytes, ...) -- CPU_ReadMem(1575 bytes @ 0x00000000) - Data: E0 2F 00 20 35 4C 00 00 2D 4D 00 00 2D 4D 00 00 ...  returns 0x00 (0012ms, 3299ms total)
T2FE8 311:804 JLINK_IsHalted()  returns TRUE (0000ms, 3299ms total)
T2FE8 312:004 JLINK_IsHalted()  returns TRUE (0000ms, 3299ms total)
T2FE8 312:205 JLINK_IsHalted()  returns TRUE (0000ms, 3299ms total)
T2FE8 312:405 JLINK_IsHalted()  returns TRUE (0000ms, 3299ms total)
T1C20 312:547 JLINK_EMU_GetList(InterfaceMask = 0x00000001, MaxInfos = 0x00000032) [0]: USB, S/N: 28007034  returns 0x01 (0000ms, 3299ms total)
T2FE8 312:606 JLINK_IsHalted()  returns TRUE (0000ms, 3299ms total)
T2FE8 312:806 JLINK_IsHalted()  returns TRUE (0000ms, 3299ms total)
T2FE8 313:007 JLINK_IsHalted()  returns TRUE (0000ms, 3299ms total)
T2FE8 313:208 JLINK_IsHalted()  returns TRUE (0000ms, 3299ms total)
T2FE8 313:408 JLINK_IsHalted()  returns TRUE (0000ms, 3299ms total)
T2FE8 313:608 JLINK_IsHalted()  returns TRUE (0000ms, 3299ms total)
T2FE8 313:809 JLINK_IsHalted()  returns TRUE (0000ms, 3299ms total)
T1C20 313:861 JLINK_EMU_GetList(InterfaceMask = 0x00000001, MaxInfos = 0x00000032) [0]: USB, S/N: 28007034  returns 0x01 (0000ms, 3299ms total)
T2FE8 314:010 JLINK_IsHalted()  returns TRUE (0000ms, 3299ms total)
T2FE8 314:211 JLINK_IsHalted()  returns TRUE (0000ms, 3299ms total)
T2FE8 314:411 JLINK_IsHalted()  returns TRUE (0000ms, 3299ms total)
T2FE8 314:612 JLINK_IsHalted()  returns TRUE (0000ms, 3299ms total)
T2FE8 314:812 JLINK_IsHalted()  returns TRUE (0000ms, 3299ms total)
T2FE8 315:012 JLINK_IsHalted()  returns TRUE (0000ms, 3299ms total)
